Aging,Temperature,SOC,Frequency,Z_real,Z_imag
0,20.0,0,10002.229,3.0045265000000003,-0.91610028
0,20.0,0,7904.959,2.9715083,-0.66178275
0,20.0,0,6248.7827,3.0473026,-0.42214073
0,20.0,0,4941.5811,3.1004606,-0.16431176
0,20.0,0,3906.2498,3.1729076999999997,-0.012016602
0,20.0,0,3087.0369,3.2473498,0.12519317
0,20.0,0,2440.7808,3.3400294,0.23952527
0,20.0,0,1930.6177,3.4184712,0.3176108
0,20.0,0,1525.4882,3.5086106999999997,0.3907769
0,20.0,0,1206.9312,3.5985842999999997,0.45502119
0,20.0,0,954.08411,3.6866865,0.50416531
0,20.0,0,754.27557,3.7834486,0.54768199
0,20.0,0,596.71857,3.8794896,0.59006491
0,20.0,0,471.35751,3.9883438000000004,0.62911317
0,20.0,0,372.7338,4.0835938,0.65960898
0,20.0,0,294.71707,4.2009381999999995,0.6923578300000001
0,20.0,0,232.98701,4.3215011,0.72251254
0,20.0,0,184.11626,4.4464874,0.74497273
0,20.0,0,145.60574,4.5719291,0.7580729399999999
0,20.0,0,115.18433,4.7050351,0.76688343
0,20.0,0,91.078392,4.8382771,0.7651685699999999
0,20.0,0,71.957245,4.975180099999999,0.7511753400000001
0,20.0,0,56.912251,5.1042042,0.7283848799999999
0,20.0,0,44.956841,5.2295621,0.70013094
0,20.0,0,35.557541,5.3476142,0.64665516
0,20.0,0,28.102516,5.4533374,0.59499586
0,20.0,0,22.226173,5.547581200000001,0.5327796699999999
0,20.0,0,17.556183,5.6260051,0.47006813
0,20.0,0,13.884776,5.6882263,0.40816487
0,20.0,0,10.988047,5.735249700000001,0.34971861
0,20.0,0,8.6805573,5.7708961,0.30103779999999997
0,20.0,0,6.8651142,5.801951,0.26115269
0,20.0,0,5.4253473,5.8188951,0.22070657999999999
0,20.0,0,4.292582,5.8421623,0.19411909
0,20.0,0,3.3908424,5.8555249,0.17609025
0,20.0,0,2.6847081,5.866039099999999,0.15813645
0,20.0,0,2.1229622,5.8760167999999995,0.14718708
0,20.0,0,1.6765022,5.8867908,0.13952884
0,20.0,0,1.3259507,5.9029004,0.13842878
0,20.0,0,1.047814,5.9118131,0.14697167
0,20.0,0,0.82777089,5.9214784,0.15475585
0,20.0,0,0.65497148,5.9275567,0.17137089
0,20.0,0,0.5175212,5.9379763,0.18641860999999998
0,20.0,0,0.40911707,5.9534623,0.20822055
0,20.0,0,0.3236866,5.9693856,0.23837038000000002
0,20.0,0,0.25591263,5.991356,0.2736859
0,20.0,0,0.20234396,6.0225781000000005,0.32253403
0,20.0,0,0.16011845,6.0572377,0.38800275
0,20.0,0,0.12650184,6.0892664000000005,0.4677207
0,20.0,1,10002.229,2.7917556,-1.0806649
0,20.0,1,7904.959,2.7929854,-0.70027076
0,20.0,1,6248.7827,2.8480869,-0.44966009
0,20.0,1,4941.5811,2.8827331999999997,-0.25569036
0,20.0,1,3906.2498,2.9142112,-0.08248946700000001
0,20.0,1,3087.0369,2.9813261,0.039924842
0,20.0,1,2440.7808,3.0492989,0.15291849999999998
0,20.0,1,1930.6177,3.1207420000000003,0.23722093
0,20.0,1,1525.4882,3.1917177,0.30795124
0,20.0,1,1206.9312,3.2628265,0.37005724
0,20.0,1,954.08411,3.3518856,0.43144633000000004
0,20.0,1,754.27557,3.4372425,0.48300288999999996
0,20.0,1,596.71857,3.5178978,0.52486785
0,20.0,1,471.35751,3.6063555000000003,0.56841568
0,20.0,1,372.7338,3.7076923,0.60441898
0,20.0,1,294.71707,3.8111146999999996,0.64668659
0,20.0,1,232.98701,3.91621,0.6714912000000001
0,20.0,1,184.11626,4.037985099999999,0.69962646
0,20.0,1,145.60574,4.1618235,0.72382699
0,20.0,1,115.18433,4.288910899999999,0.73844573
0,20.0,1,91.078392,4.419389600000001,0.73938764
0,20.0,1,71.957245,4.5501459,0.73441316
0,20.0,1,56.912251,4.6790708,0.72178262
0,20.0,1,44.956841,4.8053996,0.6897913999999999
0,20.0,1,35.557541,4.9294867,0.65147877
0,20.0,1,28.102516,5.0354470000000005,0.61041239
0,20.0,1,22.226173,5.1385732,0.54898852
0,20.0,1,17.556183,5.2216039,0.49387658000000006
0,20.0,1,13.884776,5.2874158,0.42911747
0,20.0,1,10.988047,5.3438293,0.37010357
0,20.0,1,8.6805573,5.3830836,0.32022494
0,20.0,1,6.8651142,5.4142703,0.27685083000000005
0,20.0,1,5.4253473,5.4356162,0.23745232
0,20.0,1,4.292582,5.4588923,0.20983825
0,20.0,1,3.3908424,5.4732715,0.18287561
0,20.0,1,2.6847081,5.4882783,0.16686319
0,20.0,1,2.1229622,5.4973806,0.15301361
0,20.0,1,1.6765022,5.5098701,0.14313162
0,20.0,1,1.3259507,5.5235419,0.14733252
0,20.0,1,1.047814,5.5350121,0.15273954
0,20.0,1,0.82777089,5.542797,0.16055051
0,20.0,1,0.65497148,5.5516409,0.17402225
0,20.0,1,0.5175212,5.562837200000001,0.18774702
0,20.0,1,0.40911707,5.5787419,0.21088244
0,20.0,1,0.3236866,5.597614699999999,0.23869435
0,20.0,1,0.25591263,5.623356,0.2747211
0,20.0,1,0.20234396,5.6530911999999995,0.32954148
0,20.0,1,0.16011845,5.6818081,0.39792038
0,20.0,1,0.12650184,5.708985500000001,0.47237665
0,20.0,2,10002.229,2.7704688,-1.1265177000000002
0,20.0,2,7904.959,2.6635372000000004,-0.70982228
0,20.0,2,6248.7827,2.6383786000000002,-0.49931114
0,20.0,2,4941.5811,2.6928717,-0.2982532
0,20.0,2,3906.2498,2.7495262,-0.12021256000000001
0,20.0,2,3087.0369,2.8012902000000004,0.0019042085999999999
0,20.0,2,2440.7808,2.8575391000000003,0.11376446
0,20.0,2,1930.6177,2.9248181,0.20003961
0,20.0,2,1525.4882,2.9906081,0.26795792
0,20.0,2,1206.9312,3.0782996,0.36098238
0,20.0,2,954.08411,3.133313,0.39344578
0,20.0,2,754.27557,3.2069413,0.44645934000000004
0,20.0,2,596.71857,3.2882493,0.48971466999999996
0,20.0,2,471.35751,3.3737551,0.538825
0,20.0,2,372.7338,3.4714530000000003,0.5848289
0,20.0,2,294.71707,3.5677981,0.62753039
0,20.0,2,232.98701,3.6786878,0.66377013
0,20.0,2,184.11626,3.7909688,0.6950963299999999
0,20.0,2,145.60574,3.9133945999999997,0.7185296299999999
0,20.0,2,115.18433,4.0329965,0.74019772
0,20.0,2,91.078392,4.1679316,0.7512210300000001
0,20.0,2,71.957245,4.297401799999999,0.75141439
0,20.0,2,56.912251,4.4295993,0.74896141
0,20.0,2,44.956841,4.556614,0.72675658
0,20.0,2,35.557541,4.6765623000000005,0.7109307300000001
0,20.0,2,28.102516,4.7921743,0.67855604
0,20.0,2,22.226173,4.911289999999999,0.6478146
0,20.0,2,17.556183,5.0199968,0.60610246
0,20.0,2,13.884776,5.1188841,0.55696385
0,20.0,2,10.988047,5.203147,0.49792777
0,20.0,2,8.6805573,5.2747139999999995,0.43605434
0,20.0,2,6.8651142,5.3297658,0.37943549
0,20.0,2,5.4253473,5.3776125,0.31719502
0,20.0,2,4.292582,5.4033636,0.27799915000000003
0,20.0,2,3.3908424,5.4281079,0.23995913000000002
0,20.0,2,2.6847081,5.4460871,0.20410476
0,20.0,2,2.1229622,5.4606259999999995,0.18044657
0,20.0,2,1.6765022,5.475407,0.16730679999999998
0,20.0,2,1.3259507,5.4849992,0.15722742
0,20.0,2,1.047814,5.4909065,0.15549434
0,20.0,2,0.82777089,5.4982454,0.15603377
0,20.0,2,0.65497148,5.508243599999999,0.16303721
0,20.0,2,0.5175212,5.5161407,0.17460866
0,20.0,2,0.40911707,5.5315731999999995,0.19069389
0,20.0,2,0.3236866,5.5524888,0.21809897
0,20.0,2,0.25591263,5.574442899999999,0.25931114
0,20.0,2,0.20234396,5.5943844,0.31086121
0,20.0,2,0.16011845,5.6133978,0.36632692
0,20.0,2,0.12650184,5.6455601,0.42255284
0,20.0,3,10002.229,2.5958346999999997,-1.1636901
0,20.0,3,7904.959,2.5015792,-0.75479486
0,20.0,3,6248.7827,2.4893703,-0.49207459000000003
0,20.0,3,4941.5811,2.5102226,-0.30453701
0,20.0,3,3906.2498,2.5800066,-0.16155517
0,20.0,3,3087.0369,2.6211507999999997,-0.031795862
0,20.0,3,2440.7808,2.6777026,0.078485224
0,20.0,3,1930.6177,2.7359142,0.16629529
0,20.0,3,1525.4882,2.7930827,0.24114865000000002
0,20.0,3,1206.9312,2.8554404,0.30277125
0,20.0,3,954.08411,2.9218148,0.36197729
0,20.0,3,754.27557,2.9917997,0.41473296000000004
0,20.0,3,596.71857,3.0710283,0.46328147
0,20.0,3,471.35751,3.1538883,0.5132486700000001
0,20.0,3,372.7338,3.2348380999999997,0.5592707299999999
0,20.0,3,294.71707,3.3305194,0.60679164
0,20.0,3,232.98701,3.4364059,0.6452100399999999
0,20.0,3,184.11626,3.548489,0.68210327
0,20.0,3,145.60574,3.6637112000000003,0.71040931
0,20.0,3,115.18433,3.7912814999999997,0.73966081
0,20.0,3,91.078392,3.9200531,0.7494338199999999
0,20.0,3,71.957245,4.0420513,0.75511751
0,20.0,3,56.912251,4.1739596,0.7605323300000001
0,20.0,3,44.956841,4.2921547,0.74637792
0,20.0,3,35.557541,4.4048307,0.73918811
0,20.0,3,28.102516,4.5197834,0.72926877
0,20.0,3,22.226173,4.6342616,0.72650856
0,20.0,3,17.556183,4.7487905,0.7175460899999999
0,20.0,3,13.884776,4.8694951,0.70853479
0,20.0,3,10.988047,4.9982136,0.68885111
0,20.0,3,8.6805573,5.1225466,0.65522437
0,20.0,3,6.8651142,5.2322615,0.60618075
0,20.0,3,5.4253473,5.3343633,0.54421352
0,20.0,3,4.292582,5.4167644,0.48652446
0,20.0,3,3.3908424,5.4822294000000005,0.42454409000000004
0,20.0,3,2.6847081,5.5291364,0.36585223
0,20.0,3,2.1229622,5.5611669,0.31673256
0,20.0,3,1.6765022,5.5901781,0.27343826000000004
0,20.0,3,1.3259507,5.6147529,0.24702106000000001
0,20.0,3,1.047814,5.6294375,0.22964510000000002
0,20.0,3,0.82777089,5.6418702000000005,0.22188878
0,20.0,3,0.65497148,5.6532407000000005,0.21808274
0,20.0,3,0.5175212,5.6638825,0.22144186
0,20.0,3,0.40911707,5.677373599999999,0.23239173
0,20.0,3,0.3236866,5.697442199999999,0.25446384
0,20.0,3,0.25591263,5.7208184,0.28398144000000003
0,20.0,3,0.20234396,5.750840999999999,0.32760616
0,20.0,3,0.16011845,5.7853968,0.38668705
0,20.0,3,0.12650184,5.8184778,0.45765493999999995
0,20.0,4,10002.229,2.2758868999999997,-1.1247824999999998
0,20.0,4,7904.959,2.3597346,-0.7043756800000001
0,20.0,4,6248.7827,2.3599535,-0.55750238
0,20.0,4,4941.5811,2.3793813,-0.34828307000000003
0,20.0,4,3906.2498,2.3980810999999997,-0.19992293
0,20.0,4,3087.0369,2.4454817,-0.079664838
0,20.0,4,2440.7808,2.4884044999999997,0.036280126
0,20.0,4,1930.6177,2.5400885,0.12227011999999998
0,20.0,4,1525.4882,2.5929781000000003,0.19819257
0,20.0,4,1206.9312,2.6489599,0.26671491999999997
0,20.0,4,954.08411,2.7071362999999997,0.33059160000000004
0,20.0,4,754.27557,2.7766773000000002,0.38722521000000004
0,20.0,4,596.71857,2.8444871000000003,0.43788663
0,20.0,4,471.35751,2.9146222,0.49595913
0,20.0,4,372.7338,3.0011176,0.5504679899999999
0,20.0,4,294.71707,3.0891859999999998,0.5985169
0,20.0,4,232.98701,3.1844378,0.65076456
0,20.0,4,184.11626,3.3011227,0.69999287
0,20.0,4,145.60574,3.4131221,0.7496818399999999
0,20.0,4,115.18433,3.5392153,0.7856657
0,20.0,4,91.078392,3.6688361,0.81895327
0,20.0,4,71.957245,3.8060339,0.85454551
0,20.0,4,56.912251,3.9425259000000006,0.87680167
0,20.0,4,44.956841,4.0792678,0.89160632
0,20.0,4,35.557541,4.2140977,0.90656546
0,20.0,4,28.102516,4.346053100000001,0.91262336
0,20.0,4,22.226173,4.4609518,0.93508966
0,20.0,4,17.556183,4.5766523,0.95942785
0,20.0,4,13.884776,4.6900967,1.0095579
0,20.0,4,10.988047,4.8151808,1.0726125000000002
0,20.0,4,8.6805573,4.9593393,1.1564125
0,20.0,4,6.8651142,5.1204776,1.2584339999999998
0,20.0,4,5.4253473,5.3104325,1.380353
0,20.0,4,4.292582,5.5819899,1.4959339999999999
0,20.0,4,3.3908424,5.8194892,1.5788171
0,20.0,4,2.6847081,6.159165399999999,1.6508475
0,20.0,4,2.1229622,6.4510135,1.6885832
0,20.0,4,1.6765022,6.7719067,1.6356597000000002
0,20.0,4,1.3259507,7.079774,1.5851506
0,20.0,4,1.047814,7.3207505,1.5078072
0,20.0,4,0.82777089,7.535376100000001,1.4042474
0,20.0,4,0.65497148,7.7302735,1.3198494
0,20.0,4,0.5175212,7.904684199999999,1.2631223
0,20.0,4,0.40911707,8.0335103,1.2477242
0,20.0,4,0.3236866,8.1329318,1.2415876
0,20.0,4,0.25591263,8.235891299999999,1.2484796
0,20.0,4,0.20234396,8.3503192,1.289778
0,20.0,4,0.16011845,8.4689409,1.3718606
0,20.0,4,0.12650184,8.5890135,1.4780685
0,22.5,0,10002.229,2.9556693,-0.9585052599999999
0,22.5,0,7904.959,2.8600068999999997,-0.6696198800000001
0,22.5,0,6248.7827,2.8833188,-0.43057965
0,22.5,0,4941.5811,2.8829521,-0.21482246
0,22.5,0,3906.2498,2.9532891,-0.071648297
0,22.5,0,3087.0369,3.0201641,0.056272245000000005
0,22.5,0,2440.7808,3.087708,0.16362245
0,22.5,0,1930.6177,3.1600227,0.24638216999999998
0,22.5,0,1525.4882,3.2415562,0.31143185
0,22.5,0,1206.9312,3.3202921,0.36720201
0,22.5,0,954.08411,3.3927627,0.42081438
0,22.5,0,754.27557,3.480511,0.45915427999999997
0,22.5,0,596.71857,3.566961,0.49564848000000006
0,22.5,0,471.35751,3.6562353,0.52800012
0,22.5,0,372.7338,3.7465672999999997,0.55461109
0,22.5,0,294.71707,3.8446989,0.57817198
0,22.5,0,232.98701,3.9443452999999997,0.59355568
0,22.5,0,184.11626,4.05169,0.60664362
0,22.5,0,145.60574,4.1575725,0.61023375
0,22.5,0,115.18433,4.2654392,0.61077392
0,22.5,0,91.078392,4.371748800000001,0.5998504299999999
0,22.5,0,71.957245,4.4800979,0.58010156
0,22.5,0,56.912251,4.5807497,0.55352942
0,22.5,0,44.956841,4.6759606,0.5179466699999999
0,22.5,0,35.557541,4.7638253,0.47244303
0,22.5,0,28.102516,4.837669,0.42544713
0,22.5,0,22.226173,4.8958836,0.37308654
0,22.5,0,17.556183,4.9459646,0.32265589
0,22.5,0,13.884776,4.9807155,0.27984899
0,22.5,0,10.988047,5.0120312,0.23949276
0,22.5,0,8.6805573,5.0310711,0.20040604
0,22.5,0,6.8651142,5.0500995,0.17902637999999998
0,22.5,0,5.4253473,5.0637969,0.15742811
0,22.5,0,4.292582,5.0749932,0.14018708000000002
0,22.5,0,3.3908424,5.0893687000000005,0.12796726
0,22.5,0,2.6847081,5.0960011,0.121943
0,22.5,0,2.1229622,5.1024337,0.11892674
0,22.5,0,1.6765022,5.1078931,0.11436813
0,22.5,0,1.3259507,5.118323,0.11765887
0,22.5,0,1.047814,5.1305965,0.12074220000000001
0,22.5,0,0.82777089,5.1418273,0.1357603
0,22.5,0,0.65497148,5.1556272000000005,0.15669591000000002
0,22.5,0,0.5175212,5.1606265,0.18070469
0,22.5,0,0.40911707,5.1718601,0.20180567
0,22.5,0,0.3236866,5.1895663999999995,0.23151842
0,22.5,0,0.25591263,5.2123311999999995,0.27194334000000003
0,22.5,0,0.20234396,5.237463399999999,0.31657281
0,22.5,0,0.16011845,5.2731372,0.36774680000000004
0,22.5,0,0.12650184,5.3210892,0.43401687
0,22.5,1,10002.229,2.6186772,-0.9963118900000001
0,22.5,1,7904.959,2.549313,-0.74873754
0,22.5,1,6248.7827,2.6128136,-0.48050909999999997
0,22.5,1,4941.5811,2.6380115,-0.29427601999999997
0,22.5,1,3906.2498,2.6929791,-0.14584673
0,22.5,1,3087.0369,2.7487904,-0.014924352
0,22.5,1,2440.7808,2.8090158,0.091117246
0,22.5,1,1930.6177,2.8688833000000002,0.17499131
0,22.5,1,1525.4882,2.9314924,0.24593613
0,22.5,1,1206.9312,2.9996946,0.30211373999999996
0,22.5,1,954.08411,3.0682024,0.35393779000000003
0,22.5,1,754.27557,3.1384018,0.3998547
0,22.5,1,596.71857,3.2153544,0.43608390999999996
0,22.5,1,471.35751,3.2988456,0.47572883
0,22.5,1,372.7338,3.3854004,0.5072582299999999
0,22.5,1,294.71707,3.4737403000000002,0.5396457299999999
0,22.5,1,232.98701,3.5698735,0.55790984
0,22.5,1,184.11626,3.6656845,0.57417969
0,22.5,1,145.60574,3.7639053,0.58481889
0,22.5,1,115.18433,3.871412,0.5839553199999999
0,22.5,1,91.078392,3.9785565,0.58633345
0,22.5,1,71.957245,4.0829498,0.57366199
0,22.5,1,56.912251,4.1865432,0.5550909
0,22.5,1,44.956841,4.2770513999999995,0.52457169
0,22.5,1,35.557541,4.3679825,0.48868847
0,22.5,1,28.102516,4.4505415,0.44303396
0,22.5,1,22.226173,4.522074,0.39564099
0,22.5,1,17.556183,4.5709098,0.34485231
0,22.5,1,13.884776,4.6150382,0.29924573000000004
0,22.5,1,10.988047,4.6475278,0.25645471999999997
0,22.5,1,8.6805573,4.6760407,0.22241146
0,22.5,1,6.8651142,4.690836200000001,0.18695994000000002
0,22.5,1,5.4253473,4.713004,0.16097682
0,22.5,1,4.292582,4.7223372,0.15051864999999998
0,22.5,1,3.3908424,4.7311885,0.13023773
0,22.5,1,2.6847081,4.739861899999999,0.12443052
0,22.5,1,2.1229622,4.7516073,0.11637143
0,22.5,1,1.6765022,4.7639459,0.11601558000000001
0,22.5,1,1.3259507,4.7696605,0.12463021
0,22.5,1,1.047814,4.7770003,0.13017068999999998
0,22.5,1,0.82777089,4.7861245,0.13850041
0,22.5,1,0.65497148,4.7937119,0.15450433
0,22.5,1,0.5175212,4.8063691,0.17117015
0,22.5,1,0.40911707,4.8260549,0.19137257000000002
0,22.5,1,0.3236866,4.8500309,0.22810983
0,22.5,1,0.25591263,4.8714205999999995,0.2759769
0,22.5,1,0.20234396,4.8895283,0.32787811
0,22.5,1,0.16011845,4.9123261000000005,0.38080206
0,22.5,1,0.12650184,4.950673800000001,0.43819757
0,22.5,2,10002.229,2.6246181,-0.92897704
0,22.5,2,7904.959,2.5273412,-0.7477000500000001
0,22.5,2,6248.7827,2.4772056,-0.5476104
0,22.5,2,4941.5811,2.4932621,-0.32415925
0,22.5,2,3906.2498,2.5443519,-0.17478684
0,22.5,2,3087.0369,2.5913643000000004,-0.047958303
0,22.5,2,2440.7808,2.6424471,0.057562269
0,22.5,2,1930.6177,2.6929362,0.1398421
0,22.5,2,1525.4882,2.7531006,0.21142725
0,22.5,2,1206.9312,2.8132258,0.27140256
0,22.5,2,954.08411,2.8792166000000003,0.32706067
0,22.5,2,754.27557,2.9449754,0.37466528
0,22.5,2,596.71857,3.0138849,0.41727243999999997
0,22.5,2,471.35751,3.0982201000000003,0.45404365
0,22.5,2,372.7338,3.1772386,0.49050256999999997
0,22.5,2,294.71707,3.2643530999999997,0.5257595300000001
0,22.5,2,232.98701,3.355019,0.5495497
0,22.5,2,184.11626,3.4530906,0.5705220400000001
0,22.5,2,145.60574,3.5513546,0.58436027
0,22.5,2,115.18433,3.6521524,0.59621216
0,22.5,2,91.078392,3.7577808999999998,0.60008292
0,22.5,2,71.957245,3.8603004,0.59884228
0,22.5,2,56.912251,3.9589298000000004,0.58887323
0,22.5,2,44.956841,4.0568686000000005,0.5556400300000001
0,22.5,2,35.557541,4.152410199999999,0.54471835
0,22.5,2,28.102516,4.2491746,0.52289473
0,22.5,2,22.226173,4.3346942,0.48585993
0,22.5,2,17.556183,4.415275500000001,0.44873345
0,22.5,2,13.884776,4.4860481,0.40420698
0,22.5,2,10.988047,4.541087,0.34908307000000005
0,22.5,2,8.6805573,4.5876005,0.30708467
0,22.5,2,6.8651142,4.6187495,0.25771442
0,22.5,2,5.4253473,4.6494771,0.22206697
0,22.5,2,4.292582,4.6660183,0.19221723999999998
0,22.5,2,3.3908424,4.6761287,0.16801716
0,22.5,2,2.6847081,4.6908171,0.1460279
0,22.5,2,2.1229622,4.7063068,0.13481610000000002
0,22.5,2,1.6765022,4.7103413000000005,0.12798338
0,22.5,2,1.3259507,4.7157211,0.12610827
0,22.5,2,1.047814,4.7243172,0.12911356
0,22.5,2,0.82777089,4.7319336,0.13417298
0,22.5,2,0.65497148,4.7370102,0.14365902
0,22.5,2,0.5175212,4.7504315,0.15663746
0,22.5,2,0.40911707,4.7700605000000005,0.17985757000000002
0,22.5,2,0.3236866,4.787859999999999,0.21726677
0,22.5,2,0.25591263,4.7994195,0.25653697
0,22.5,2,0.20234396,4.816448299999999,0.29938549
0,22.5,2,0.16011845,4.845433900000001,0.3425859
0,22.5,2,0.12650184,4.8882039,0.40164328
0,22.5,3,10002.229,2.3083666,-1.1636587999999999
0,22.5,3,7904.959,2.3368960000000003,-0.78537932
0,22.5,3,6248.7827,2.3209762,-0.5469287300000001
0,22.5,3,4941.5811,2.3508829,-0.35805866
0,22.5,3,3906.2498,2.393784,-0.20765876
0,22.5,3,3087.0369,2.4348863,-0.076476994
0,22.5,3,2440.7808,2.4798682000000003,0.032523093999999995
0,22.5,3,1930.6177,2.5299198,0.1160825
0,22.5,3,1525.4882,2.5825715,0.18617557
0,22.5,3,1206.9312,2.6517769,0.23930742
0,22.5,3,954.08411,2.7005465,0.30310013
0,22.5,3,754.27557,2.7695977999999997,0.34595423
0,22.5,3,596.71857,2.8260106,0.39609204000000003
0,22.5,3,471.35751,2.9012482,0.44106512
0,22.5,3,372.7338,2.9810674,0.47863734999999996
0,22.5,3,294.71707,3.0709039000000002,0.51254139
0,22.5,3,232.98701,3.156835,0.54203527
0,22.5,3,184.11626,3.2494329,0.5664441299999999
0,22.5,3,145.60574,3.3479680000000003,0.58629259
0,22.5,3,115.18433,3.446646,0.59343729
0,22.5,3,91.078392,3.5531584,0.60375128
0,22.5,3,71.957245,3.6471875,0.60657033
0,22.5,3,56.912251,3.7510854,0.60345326
0,22.5,3,44.956841,3.8329402,0.59503777
0,22.5,3,35.557541,3.9340104,0.5900241700000001
0,22.5,3,28.102516,4.0223341999999995,0.58999576
0,22.5,3,22.226173,4.1201846,0.58872771
0,22.5,3,17.556183,4.2193229,0.57672308
0,22.5,3,13.884776,4.3160655,0.5642786900000001
0,22.5,3,10.988047,4.4205938,0.53313177
0,22.5,3,8.6805573,4.514175,0.4975457
0,22.5,3,6.8651142,4.5943651,0.44583957
0,22.5,3,5.4253473,4.6580471,0.39576605
0,22.5,3,4.292582,4.7109318,0.34656233000000003
0,22.5,3,3.3908424,4.7518746,0.29842672000000003
0,22.5,3,2.6847081,4.7814329,0.26304281
0,22.5,3,2.1229622,4.801691,0.22903562
0,22.5,3,1.6765022,4.8165196,0.20575104
0,22.5,3,1.3259507,4.8291962999999996,0.18641238999999998
0,22.5,3,1.047814,4.8426013,0.177038
0,22.5,3,0.82777089,4.8569697,0.17270616
0,22.5,3,0.65497148,4.8730262,0.17865694999999998
0,22.5,3,0.5175212,4.8893504,0.1952719
0,22.5,3,0.40911707,4.8993179,0.22008152
0,22.5,3,0.3236866,4.9083065,0.24451545
0,22.5,3,0.25591263,4.9313265,0.27249538
0,22.5,3,0.20234396,4.9639181,0.31364427
0,22.5,3,0.16011845,4.9952497000000005,0.36639263
0,22.5,3,0.12650184,5.0312276,0.42083023999999997
0,22.5,4,10002.229,2.3107955000000002,-1.1047493
0,22.5,4,7904.959,2.2866842,-0.7111514600000001
0,22.5,4,6248.7827,2.2890631,-0.56473562
0,22.5,4,4941.5811,2.2550593,-0.37716297
0,22.5,4,3906.2498,2.3006259,-0.22448781
0,22.5,4,3087.0369,2.3323845,-0.09712175199999999
0,22.5,4,2440.7808,2.3720774,0.016640725999999998
0,22.5,4,1930.6177,2.4191488000000003,0.10407148000000001
0,22.5,4,1525.4882,2.4686321,0.17503081
